 ****** HSPICE -- A-2008.03 32-BIT (Feb 26 2008) winnt ******                   
  Copyright (C) 2008 Synopsys, Inc. All Rights Reserved.                        
  Unpublished-rights reserved under US copyright laws.
  This program is protected by law and is subject to the 
  terms and conditions of the license agreement found in:
    C:\synopsys\Hspice_A-2008.03\license.warn
  Use of this program is your acceptance to be bound by this 
  license agreement. HSPICE is the trademark of Synopsys, Inc.
  Input File: c:\users\mehrdad\desktop\b\nor01.sp                               
 Init: read install configuration file: C:\synopsys\Hspice_A-2008.03\meta.cfg
 Init: hspice initialization file: C:\synopsys\Hspice_A-2008.03\hspice.ini




 ***** params ***** 
 .param
 +lmin=32n

 +vdd=1.1v

 ***** sources *****
 vdd	1	0  	1.1

 vin1	3	0	dc	0
 vin2	2	0	dc	1

 ***** inverter *****
 .subckt inverter in	gnd 	node	out

 mp5	out	in	node    node    pmos 	    l='lmin'  w='4*lmin'	

 mn6	out     in      gnd     gnd     nmos        l='lmin'  w='2*lmin'

 .ends inverter

 ***** nor gate *****
 mp1	5	2	1	1	pmos	l='lmin'	w='8*lmin'	

 mp2     4  	3       5     	5    	pmos	l='lmin'     	w='8*lmin'


 mn3	4	3	0	0     	nmos	l='lmin'	w='2*lmin'

 mn4     4    	2       0    	0     	nmos    l='lmin'     	w='2*lmin'


 x	4	0	1 	6 	inverter

 ***** type of analysis ***** 
 .tran	1p	200n 	1p  
 .op

 .end

 ***********************************************************************
 ** runlvl is invoked, you can disable it by:
      a) Add option runlvl=0 to your current simulation job.
      b) Copy $installdir/hspice.ini to your HOME directory and
         customize it by adding option runlvl=0, which disables
         it for all of your simulation jobs.
      c) Re-invoke $installdir/bin/config program and unselect the
         option runlvl setting in box 'hspice.ini' which disables
         it for whole group simulation jobs.

 ** runlvl is invoked, some options are ignored or automatically set:
      Options below are automatically set(user setting will overwrite them):
      if runlvl=6,            .option bypass=0
      if runlvl=[1|2|3|4|5],  .option bypass=2

      Options below are ignored, they are replaced by automated algorithms:
        lvltim    dvdt      ft    fast   trtol  absvar  relvar
          relq  chgtol    dvtr    imin    itl3    rmax

 ** runlvl is invoked, actual option value used by HSPICE are:
       runlvl= 3       bypass= 2      mbypass=   2.00   bytol= 100.00u
 ***********************************************************************

1****** HSPICE -- A-2008.03 32-BIT (Feb 26 2008) winnt ******                   
 ******  
 * or - 01                                                                      
  ******  circuit name directory                                                
 ******  
 circuit number to circuit name directory
   number circuitname                     definition         multiplier
        0 main circuit
        1 x.                              inverter           1.00 

 **warning** recommend to set start explicitly:
             .TRAN tstep tstop START=val


 ** warning** associated with encrypted blocks were suppressed

 
      
  Opening plot unit= 79
 file=c:\users\mehrdad\desktop\b\nor01.pa0                                     

1****** HSPICE -- A-2008.03 32-BIT (Feb 26 2008) winnt ******                   
 ******  
 * or - 01                                                                      
  ******  operating point information      tnom=  25.000 temp=  25.000          
 ******  
 ***** operating point status is all       simulation time is     0.     
    node    =voltage      node    =voltage      node    =voltage

 +0:1       =   1.1000  0:2       =   1.0000  0:3       =   0.     
 +0:4       = 764.2179u 0:5       = 269.6735m 0:6       =   1.0998 


 ****  voltage sources

 subckt                                   
 element  0:vdd      0:vin1     0:vin2    
  volts      1.1000     0.         1.0000 
  current -253.1697n  202.2374f   -1.0536n
  power    278.4867n    0.         1.0536n

     total voltage source power dissipation=  279.5403n       watts




 **** mosfets


 subckt                                               x          x         
 element  0:mp1      0:mp2      0:mn3      0:mn4      1:mp5      1:mn6     
 model    0:pmos     0:pmos     0:nmos     0:nmos     0:pmos     0:nmos    
 region       Cutoff     Cutoff     Cutoff     Linear     Linear     Cutoff
  id      -219.3021n -219.3070n    2.6219p  220.3892n  -33.8543n   33.3048n
  ibs     -7.915e-25 -2.626e-25  9.914e-28  2.179e-26 -5.347e-25  1.244e-24
  ibd      840.3265f  278.9090f   -1.0573f   -1.0573f  282.2648a   -1.1098p
  vgs     -100.0000m -269.6735m    0.         1.0000    -1.0992   764.2179u
  vds     -830.3265m -268.9092m  764.2179u  764.2179u -203.4059u    1.0998 
  vbs        0.         0.         0.         0.         0.         0.     
  vth     -207.0983m -358.3721m  494.7303m  494.7303m -430.7748m  252.7560m
  vdsat    -50.7282m  -53.6029m   39.7611m  279.7833m -483.5948m   38.0296m
  vod      107.0983m   88.6986m -494.7303m  505.2697m -668.4610m -251.9918m
  beta     997.6180u  792.9538u    2.7661m    2.0916m  316.9039u    3.7851m
  gam eff  400.0000m  400.0000m  400.0000m  400.0000m  400.0000m  400.0000m
  gm         4.5432u    4.5162u   60.6369p  103.5965n   30.6521n  729.3910n
  gds        1.4292u    1.3716u    3.4052n  288.1231u  166.4148u  178.2608n
  gmb      896.1480n  870.3788n   17.6115p   38.4755n   10.6193n  171.5620n
  cdtot    163.6295a  210.3530a   52.2375a   81.2599a  171.6127a   37.5516a
  cgtot    179.3743a  220.1669a   45.4658a   69.1737a  154.6223a   37.6862a
  cstot    306.3835a  315.2699a   71.4238a   76.5110a  159.9660a   71.4477a
  cbtot    327.7171a  339.5397a   87.8555a   87.3777a  174.8532a   80.9695a
  cgs      102.3498a  111.5653a   20.3264a   38.7329a   90.0357a   20.3541a
  cgd       58.7138a   91.9711a   20.3095a   29.9553a   63.7998a   12.5064a




          ***** job concluded
1****** HSPICE -- A-2008.03 32-BIT (Feb 26 2008) winnt ******                   
 ******  
 * or - 01                                                                      
  ******  job statistics summary           tnom=  25.000 temp=  25.000          
 ******  

           total memory used        172 kbytes

  # nodes =      31 # elements=       9
  # diodes=       0 # bjts    =       0 # jfets   =       0 # mosfets =       6
  # va device =       0

    analysis           time    # points   tot. iter  conv.iter

    op point           0.07           1          10
    transient          0.08      200000          60          30 rev=         0
    readin             0.01
    errchk             0.01
    setup              0.01
    output             0.00
           total cpu time          0.18 seconds
           total elapsed time         1 seconds
               job started at  13:06:21 11/02/2018
               job ended   at  13:06:21 11/02/2018


 Init: hspice initialization file: C:\synopsys\Hspice_A-2008.03\hspice.ini
