 ****** HSPICE -- A-2008.03 32-BIT (Feb 26 2008) winnt ******                   
  Copyright (C) 2008 Synopsys, Inc. All Rights Reserved.                        
  Unpublished-rights reserved under US copyright laws.
  This program is protected by law and is subject to the 
  terms and conditions of the license agreement found in:
    C:\synopsys\Hspice_A-2008.03\license.warn
  Use of this program is your acceptance to be bound by this 
  license agreement. HSPICE is the trademark of Synopsys, Inc.
  Input File: c:\users\mehrdad\desktop\b\nor00.sp                               
 Init: read install configuration file: C:\synopsys\Hspice_A-2008.03\meta.cfg
 Init: hspice initialization file: C:\synopsys\Hspice_A-2008.03\hspice.ini




 ***** params ***** 
 .param
 +lmin=32n

 +vdd=1.1v

 ***** sources *****
 vdd	1	0  	1.1

 vin1	3	0	dc	0
 vin2	2	0	dc	0

 ***** inverter *****
 .subckt inverter in	gnd 	node	out

 mp5	out	in	node    node    pmos 	    l='lmin'  w='4*lmin'	

 mn6	out     in      gnd     gnd     nmos        l='lmin'  w='2*lmin'

 .ends inverter

 ***** nor gate *****
 mp1	5	2	1	1	pmos	l='lmin'	w='8*lmin'	

 mp2     4  	3       5     	5    	pmos	l='lmin'     	w='8*lmin'


 mn3	4	3	0	0     	nmos	l='lmin'	w='2*lmin'

 mn4     4    	2       0    	0     	nmos    l='lmin'     	w='2*lmin'


 x	4	0	1 	6 	inverter

 ***** type of analysis ***** 
 .tran	1p	200n 	1p  
 .op

 .end

 ***********************************************************************
 ** runlvl is invoked, you can disable it by:
      a) Add option runlvl=0 to your current simulation job.
      b) Copy $installdir/hspice.ini to your HOME directory and
         customize it by adding option runlvl=0, which disables
         it for all of your simulation jobs.
      c) Re-invoke $installdir/bin/config program and unselect the
         option runlvl setting in box 'hspice.ini' which disables
         it for whole group simulation jobs.

 ** runlvl is invoked, some options are ignored or automatically set:
      Options below are automatically set(user setting will overwrite them):
      if runlvl=6,            .option bypass=0
      if runlvl=[1|2|3|4|5],  .option bypass=2

      Options below are ignored, they are replaced by automated algorithms:
        lvltim    dvdt      ft    fast   trtol  absvar  relvar
          relq  chgtol    dvtr    imin    itl3    rmax

 ** runlvl is invoked, actual option value used by HSPICE are:
       runlvl= 3       bypass= 2      mbypass=   2.00   bytol= 100.00u
 ***********************************************************************

1****** HSPICE -- A-2008.03 32-BIT (Feb 26 2008) winnt ******                   
 ******  
 * or - 00                                                                      
  ******  circuit name directory                                                
 ******  
 circuit number to circuit name directory
   number circuitname                     definition         multiplier
        0 main circuit
        1 x.                              inverter           1.00 

 **warning** recommend to set start explicitly:
             .TRAN tstep tstop START=val


 ** warning** associated with encrypted blocks were suppressed

 
      
  Opening plot unit= 79
 file=c:\users\mehrdad\desktop\b\nor00.pa0                                     

1****** HSPICE -- A-2008.03 32-BIT (Feb 26 2008) winnt ******                   
 ******  
 * or - 00                                                                      
  ******  operating point information      tnom=  25.000 temp=  25.000          
 ******  
 ***** operating point status is all       simulation time is     0.     
    node    =voltage      node    =voltage      node    =voltage

 +0:1       =   1.1000  0:2       =   0.      0:3       =   0.     
 +0:4       =   1.0996  0:5       =   1.0998  0:6       = 297.8212u


 ****  voltage sources

 subckt                                   
 element  0:vdd      0:vin1     0:vin2    
  volts      1.1000     0.         0.     
  current -156.9072n  589.1293p  589.1745p
  power    172.5979n    0.         0.     

     total voltage source power dissipation=  172.5979n       watts




 **** mosfets


 subckt                                               x          x         
 element  0:mp1      0:mp2      0:mn3      0:mn4      1:mp5      1:mn6     
 model    0:pmos     0:pmos     0:nmos     0:nmos     0:pmos     0:nmos    
 region       Linear     Linear     Cutoff     Cutoff     Cutoff     Linear
  id       -68.4288n  -68.3773n   32.7179n   32.7179n  -88.4511n   89.3771n
  ibs     -1.130e-24 -1.126e-24  1.239e-24  1.239e-24 -1.367e-24  1.301e-25
  ibd      275.7949a  275.6369a   -1.1096p   -1.1096p    1.1097p -413.0724a
  vgs       -1.1000    -1.0998     0.         0.      -397.3632u    1.0996 
  vds     -198.7386u -198.6246u    1.0996     1.0996    -1.0997   297.8212u
  vbs        0.         0.         0.         0.         0.         0.     
  vth     -430.7760m -430.7761m  252.7987m  252.7987m -134.5151m  494.8330m
  vdsat   -484.6317m -484.5188m   38.0258m   38.0258m  -48.1615m  322.8789m
  vod     -669.2240m -669.0252m -252.7987m -252.7987m  134.1178m  604.7697m
  beta     660.4653u  660.5168u    3.7849m    3.7849m  542.1394u    1.9802m
  gam eff  400.0000m  400.0000m  400.0000m  400.0000m  400.0000m  400.0000m
  gm        61.3416n   61.3238n  716.8825n  716.8825n    1.8638u   29.5867n
  gds      344.2705u  344.2092u  175.1911n  175.1911n  684.0542n  300.0127u
  gmb       21.2625n   21.2527n  168.7335n  168.7335n  377.5910n   12.4600n
  cdtot    352.3906a  352.3823a   37.5518a   37.5518a   77.2438a   82.4082a
  cgtot    322.0112a  322.0078a   37.6712a   37.6712a   81.2384a   69.3278a
  cstot    324.8192a  324.8210a   71.4308a   71.4308a  146.6892a   76.0699a
  cbtot    350.1014a  350.1015a   80.9727a   80.9727a  161.8802a   87.3776a
  cgs      187.7081a  187.7062a   20.3372a   20.3372a   44.5661a   38.6413a
  cgd      133.0151a  133.0131a   12.5060a   12.5060a   27.1291a   30.2733a




          ***** job concluded
1****** HSPICE -- A-2008.03 32-BIT (Feb 26 2008) winnt ******                   
 ******  
 * or - 00                                                                      
  ******  job statistics summary           tnom=  25.000 temp=  25.000          
 ******  

           total memory used        172 kbytes

  # nodes =      31 # elements=       9
  # diodes=       0 # bjts    =       0 # jfets   =       0 # mosfets =       6
  # va device =       0

    analysis           time    # points   tot. iter  conv.iter

    op point           0.02           1          14
    transient          0.06      200000          60          30 rev=         0
    readin             0.01
    errchk             0.00
    setup              0.03
    output             0.00
           total cpu time          0.15 seconds
           total elapsed time         1 seconds
               job started at  13:06:02 11/02/2018
               job ended   at  13:06:03 11/02/2018


 Init: hspice initialization file: C:\synopsys\Hspice_A-2008.03\hspice.ini
